T2C18 000:159.314   SEGGER J-Link V8.38 Log File
T2C18 000:159.570   DLL Compiled: May 28 2025 12:37:48
T2C18 000:159.584   Logging started @ 2025-10-30 02:19
T2C18 000:159.596   Process: C:\Keil_v5\UV4\UV4.exe
T2C18 000:159.623 - 159.608ms 
T2C18 000:159.644 JLINK_SetWarnOutHandler(...)
T2C18 000:159.661 - 0.020ms 
T2C18 000:159.678 JLINK_OpenEx(...)
T2C18 000:167.427   Firmware: J-Link V12 compiled Apr  1 2025 10:02:39
T2C18 000:168.711   Firmware: J-Link V12 compiled Apr  1 2025 10:02:39
T2C18 000:189.042   Hardware: V12.00
T2C18 000:189.205   S/N: 601012352
T2C18 000:189.230   OEM: SEGGER
T2C18 000:189.253   Feature(s): GDB, JFlash, FlashDL, FLashBP, RDI
T2C18 000:190.882   Bootloader: (FW returned invalid version)
T2C18 000:191.455   USB speed mode: High speed (480 MBit/s)
T2C18 000:191.831   TELNET listener socket opened on port 19021
T2C18 000:192.259   WEBSRV WEBSRV_Init(): Starting webserver thread(s)
T2C18 000:192.683   WEBSRV Webserver running on local port 19080
T2C18 000:193.068   Looking for J-Link GUI Server exe at: C:\Keil_v5\ARM\Segger\JLinkGUIServer.exe
T2C18 000:193.306   Looking for J-Link GUI Server exe at: C:\Program Files\SEGGER\JLink_V838\JLinkGUIServer.exe
T2C18 000:193.389   Forking J-Link GUI Server: C:\Program Files\SEGGER\JLink_V838\JLinkGUIServer.exe
T2C18 000:198.736   J-Link GUI Server info: "J-Link GUI server V8.38 "
T2C18 000:199.468 - 39.768ms returns "O.K."
T2C18 000:199.506 JLINK_SetErrorOutHandler(...)
T2C18 000:199.519 - 0.012ms 
T2C18 000:200.950 JLINK_ExecCommand("ProjectFile = "C:\Users\22941\Documents\GitHub\HP_control\HP_Control\MDK-ARM\JLinkSettings.ini"", ...). 
T2C18 000:486.704   XML file found at: C:\Users\22941\AppData\Roaming\SEGGER\JLinkDevices\Autochips\AC7802x\AC7802x_Devices.xml
T2C18 000:496.475   C:\Users\22941\AppData\Roaming\SEGGER\JLinkDevices\Autochips\AC7802x\AC7802x_Devices.xml evaluated successfully.
T2C18 000:496.522     Device entry created:  AC7802x
T2C18 000:496.536       ChipInfo:
T2C18 000:496.631         Vendor:          Autochips
T2C18 000:496.653         Name:            AC7802x
T2C18 000:496.672         WorkRAMAddr:     0x20000000
T2C18 000:496.690         WorkRAMSize:     0x00001000
T2C18 000:496.708         Core:            JLINK_CORE_CORTEX_M0
T2C18 000:496.727       FlashBankInfo:
T2C18 000:496.743         Name:            Internal code flash
T2C18 000:496.762         BaseAddr:        0x08000000
T2C18 000:496.779         AlwaysPresent:   1
T2C18 000:496.984         LoaderInfo:
T2C18 000:497.003           Name:            Default
T2C18 000:497.020           MaxSize:         0x00008000
T2C18 000:497.039           Loader:          C:\Users\22941\AppData\Roaming\SEGGER\JLinkDevices\Autochips\AC7802x\AC7802x_32KB.FLM
T2C18 000:497.056           LoaderType:      FLASH_ALGO_TYPE_OPEN
T2C18 000:503.138   XML file found at: C:\Users\22941\AppData\Roaming\SEGGER\JLinkDevices\Autochips\AC7803x\AC7803x_Devices.xml
T2C18 000:505.050   C:\Users\22941\AppData\Roaming\SEGGER\JLinkDevices\Autochips\AC7803x\AC7803x_Devices.xml evaluated successfully.
T2C18 000:505.078     Device entry created:  AC7803x
T2C18 000:505.093       ChipInfo:
T2C18 000:505.111         Vendor:          Autochips
T2C18 000:505.131         Name:            AC7803x
T2C18 000:505.150         WorkRAMAddr:     0x20000000
T2C18 000:505.169         WorkRAMSize:     0x00010000
T2C18 000:505.188         Core:            JLINK_CORE_CORTEX_M0
T2C18 000:505.208       FlashBankInfo:
T2C18 000:505.226         Name:            P-lash
T2C18 000:505.245         BaseAddr:        0x08000000
T2C18 000:505.263         AlwaysPresent:   1
T2C18 000:505.429         LoaderInfo:
T2C18 000:505.448           Name:            Default
T2C18 000:505.466           MaxSize:         0x00040000
T2C18 000:505.486           Loader:          C:\Users\22941\AppData\Roaming\SEGGER\JLinkDevices\Autochips\AC7803x\AC7803x_PD256KB.FLM
T2C18 000:505.504           LoaderType:      FLASH_ALGO_TYPE_OPEN
T2C18 000:505.523       FlashBankInfo:
T2C18 000:505.541         Name:            D-Flash
T2C18 000:505.641         BaseAddr:        0x08040000
T2C18 000:505.659         AlwaysPresent:   1
T2C18 000:505.761         LoaderInfo:
T2C18 000:505.780           Name:            Default
T2C18 000:505.798           MaxSize:         0x00040000
T2C18 000:505.817           Loader:          C:\Users\22941\AppData\Roaming\SEGGER\JLinkDevices\Autochips\AC7803x\AC7803x_PD256KB.FLM
T2C18 000:505.835           LoaderType:      FLASH_ALGO_TYPE_OPEN
T2C18 000:506.868   XML file found at: C:\Users\22941\AppData\Roaming\SEGGER\JLinkDevices\Autochips\AC7840x\AC7840x_Devices.xml
T2C18 000:508.536   C:\Users\22941\AppData\Roaming\SEGGER\JLinkDevices\Autochips\AC7840x\AC7840x_Devices.xml evaluated successfully.
T2C18 000:508.577     Device entry created:  AC7840x
T2C18 000:508.627       ChipInfo:
T2C18 000:508.650         Vendor:          Autochips
T2C18 000:508.670         Name:            AC7840x
T2C18 000:508.690         WorkRAMAddr:     0x1FFF0000
T2C18 000:508.709         WorkRAMSize:     0x0001F000
T2C18 000:508.732         Core:            JLINK_CORE_CORTEX_M4
T2C18 000:508.751       FlashBankInfo:
T2C18 000:508.769         Name:            P-Flash
T2C18 000:508.822         AlwaysPresent:   1
T2C18 000:509.045         LoaderInfo:
T2C18 000:509.073           Name:            Default
T2C18 000:509.092           MaxSize:         0x00100000
T2C18 000:509.112           Loader:          C:\Users\22941\AppData\Roaming\SEGGER\JLinkDevices\Autochips\AC7840x\AC7840X_P1024KB.FLM
T2C18 000:509.131           LoaderType:      FLASH_ALGO_TYPE_OPEN
T2C18 000:509.150       FlashBankInfo:
T2C18 000:509.167         Name:            D-Flash
T2C18 000:509.186         BaseAddr:        0x01000000
T2C18 000:509.205         AlwaysPresent:   1
T2C18 000:509.437         LoaderInfo:
T2C18 000:509.465           Name:            Default
T2C18 000:509.482           MaxSize:         0x00020000
T2C18 000:509.500           Loader:          C:\Users\22941\AppData\Roaming\SEGGER\JLinkDevices\Autochips\AC7840x\AC7840X_D128KB.FLM
T2C18 000:509.517           LoaderType:      FLASH_ALGO_TYPE_OPEN
T2C18 000:511.085   Ref file found at: C:\Keil_v5\ARM\Segger\JLinkDevices.ref
T2C18 000:511.397   REF file references invalid XML file: C:\Program Files\SEGGER\JLink_V838\JLinkDevices.xml
T2C18 000:522.445   Flash bank @ 0x00000000: SFL: Parsing sectorization info from ELF file
T2C18 000:522.497     FlashDevice.SectorInfo[0]: .SectorSize = 0x00000800, .SectorStartAddr = 0x00000000
T2C18 000:522.525   OFL: Init() present @ offset 0x00000021
T2C18 000:522.719   OFL: UnInit() present @ offset 0x0000006D
T2C18 000:522.751   OFL: EraseSector() present @ offset 0x000000A5
T2C18 000:522.774   OFL: ProgramPage() present @ offset 0x000000BF
T2C18 000:522.797   OFL: EraseChip() present @ offset 0x0000008D
T2C18 000:522.821   OFL: BlankCheck() present @ offset 0x00000071
T2C18 000:522.843   OFL: Verify() N/A
T2C18 000:522.865   OFL: SEGGER_FL_Erase() N/A
T2C18 000:522.888   OFL: SEGGER_OPEN_Erase() N/A
T2C18 000:522.910   OFL: SEGGER_FL_Program() N/A
T2C18 000:522.933   OFL: SEGGER_OPEN_Program() N/A
T2C18 000:522.955   OFL: SEGGER_FL_Read() N/A
T2C18 000:522.977   OFL: SEGGER_OPEN_Read() N/A
T2C18 000:522.999   OFL: SEGGER_FL_CalcCRC() N/A
T2C18 000:523.021   OFL: SEGGER_OPEN_CalcCRC() N/A
T2C18 000:523.043   OFL: SEGGER_FL_Start() N/A
T2C18 000:523.065   OFL: SEGGER_OPEN_Start() N/A
T2C18 000:523.088   OFL: SEGGER_FL_GetFlashInfo() N/A
T2C18 000:523.110   OFL: SEGGER_OPEN_GetFlashInfo() N/A
T2C18 000:523.132   OFL: SEGGER_FL_Verify() N/A
T2C18 000:523.155   OFL: SEGGER_FL_CheckBlank() N/A
T2C18 000:523.177   OFL: SEGGER_FL_Prepare() N/A
T2C18 000:523.199   OFL: SEGGER_FL_Restore() N/A
T2C18 000:523.221   OFL: SEGGER_FL_EraseChip() N/A
T2C18 000:523.244   OFL var <SEGGER_FL_GoIntEn>: N/A
T2C18 000:523.266   OFL var <SEGGER_FL_Flags>: N/A
T2C18 000:532.834   Flash bank @ 0x01000000: SFL: Parsing sectorization info from ELF file
T2C18 000:532.876     FlashDevice.SectorInfo[0]: .SectorSize = 0x00000800, .SectorStartAddr = 0x00000000
T2C18 000:532.910   OFL: Init() present @ offset 0x00000021
T2C18 000:532.934   OFL: UnInit() present @ offset 0x0000006D
T2C18 000:532.957   OFL: EraseSector() present @ offset 0x000000A5
T2C18 000:532.979   OFL: ProgramPage() present @ offset 0x000000BF
T2C18 000:533.002   OFL: EraseChip() present @ offset 0x0000008D
T2C18 000:533.025   OFL: BlankCheck() present @ offset 0x00000071
T2C18 000:533.045   OFL: Verify() N/A
T2C18 000:533.065   OFL: SEGGER_FL_Erase() N/A
T2C18 000:533.086   OFL: SEGGER_OPEN_Erase() N/A
T2C18 000:533.106   OFL: SEGGER_FL_Program() N/A
T2C18 000:533.127   OFL: SEGGER_OPEN_Program() N/A
T2C18 000:533.147   OFL: SEGGER_FL_Read() N/A
T2C18 000:533.167   OFL: SEGGER_OPEN_Read() N/A
T2C18 000:533.187   OFL: SEGGER_FL_CalcCRC() N/A
T2C18 000:533.207   OFL: SEGGER_OPEN_CalcCRC() N/A
T2C18 000:533.227   OFL: SEGGER_FL_Start() N/A
T2C18 000:533.248   OFL: SEGGER_OPEN_Start() N/A
T2C18 000:533.268   OFL: SEGGER_FL_GetFlashInfo() N/A
T2C18 000:533.288   OFL: SEGGER_OPEN_GetFlashInfo() N/A
T2C18 000:533.309   OFL: SEGGER_FL_Verify() N/A
T2C18 000:533.329   OFL: SEGGER_FL_CheckBlank() N/A
T2C18 000:533.349   OFL: SEGGER_FL_Prepare() N/A
T2C18 000:533.369   OFL: SEGGER_FL_Restore() N/A
T2C18 000:533.389   OFL: SEGGER_FL_EraseChip() N/A
T2C18 000:533.410   OFL var <SEGGER_FL_GoIntEn>: N/A
T2C18 000:533.430   OFL var <SEGGER_FL_Flags>: N/A
T2C18 000:539.059   Device "AC7840X" selected.
T2C18 000:539.756 - 338.984ms returns 0x00
T2C18 000:548.374 JLINK_ExecCommand("Device = AC78406HGLA", ...). 
T2C18 000:549.185   Flash bank @ 0x00000000: SFL: Parsing sectorization info from ELF file
T2C18 000:549.222     FlashDevice.SectorInfo[0]: .SectorSize = 0x00000800, .SectorStartAddr = 0x00000000
T2C18 000:549.245   OFL: Init() present @ offset 0x00000021
T2C18 000:549.265   OFL: UnInit() present @ offset 0x0000006D
T2C18 000:549.284   OFL: EraseSector() present @ offset 0x000000A5
T2C18 000:549.303   OFL: ProgramPage() present @ offset 0x000000BF
T2C18 000:549.322   OFL: EraseChip() present @ offset 0x0000008D
T2C18 000:549.341   OFL: BlankCheck() present @ offset 0x00000071
T2C18 000:549.359   OFL: Verify() N/A
T2C18 000:549.377   OFL: SEGGER_FL_Erase() N/A
T2C18 000:549.396   OFL: SEGGER_OPEN_Erase() N/A
T2C18 000:549.414   OFL: SEGGER_FL_Program() N/A
T2C18 000:549.432   OFL: SEGGER_OPEN_Program() N/A
T2C18 000:549.450   OFL: SEGGER_FL_Read() N/A
T2C18 000:549.468   OFL: SEGGER_OPEN_Read() N/A
T2C18 000:549.486   OFL: SEGGER_FL_CalcCRC() N/A
T2C18 000:549.504   OFL: SEGGER_OPEN_CalcCRC() N/A
T2C18 000:549.523   OFL: SEGGER_FL_Start() N/A
T2C18 000:549.541   OFL: SEGGER_OPEN_Start() N/A
T2C18 000:549.559   OFL: SEGGER_FL_GetFlashInfo() N/A
T2C18 000:549.578   OFL: SEGGER_OPEN_GetFlashInfo() N/A
T2C18 000:549.597   OFL: SEGGER_FL_Verify() N/A
T2C18 000:549.615   OFL: SEGGER_FL_CheckBlank() N/A
T2C18 000:549.633   OFL: SEGGER_FL_Prepare() N/A
T2C18 000:549.652   OFL: SEGGER_FL_Restore() N/A
T2C18 000:549.670   OFL: SEGGER_FL_EraseChip() N/A
T2C18 000:549.689   OFL var <SEGGER_FL_GoIntEn>: N/A
T2C18 000:549.707   OFL var <SEGGER_FL_Flags>: N/A
T2C18 000:550.531   Flash bank @ 0x01000000: SFL: Parsing sectorization info from ELF file
T2C18 000:550.562     FlashDevice.SectorInfo[0]: .SectorSize = 0x00000800, .SectorStartAddr = 0x00000000
T2C18 000:550.584   OFL: Init() present @ offset 0x00000021
T2C18 000:550.604   OFL: UnInit() present @ offset 0x0000006D
T2C18 000:550.624   OFL: EraseSector() present @ offset 0x000000A5
T2C18 000:550.643   OFL: ProgramPage() present @ offset 0x000000BF
T2C18 000:550.663   OFL: EraseChip() present @ offset 0x0000008D
T2C18 000:550.683   OFL: BlankCheck() present @ offset 0x00000071
T2C18 000:550.702   OFL: Verify() N/A
T2C18 000:550.720   OFL: SEGGER_FL_Erase() N/A
T2C18 000:550.738   OFL: SEGGER_OPEN_Erase() N/A
T2C18 000:550.757   OFL: SEGGER_FL_Program() N/A
T2C18 000:550.775   OFL: SEGGER_OPEN_Program() N/A
T2C18 000:550.793   OFL: SEGGER_FL_Read() N/A
T2C18 000:550.812   OFL: SEGGER_OPEN_Read() N/A
T2C18 000:550.836   OFL: SEGGER_FL_CalcCRC() N/A
T2C18 000:550.861   OFL: SEGGER_OPEN_CalcCRC() N/A
T2C18 000:550.879   OFL: SEGGER_FL_Start() N/A
T2C18 000:550.897   OFL: SEGGER_OPEN_Start() N/A
T2C18 000:550.916   OFL: SEGGER_FL_GetFlashInfo() N/A
T2C18 000:550.934   OFL: SEGGER_OPEN_GetFlashInfo() N/A
T2C18 000:550.953   OFL: SEGGER_FL_Verify() N/A
T2C18 000:550.971   OFL: SEGGER_FL_CheckBlank() N/A
T2C18 000:550.989   OFL: SEGGER_FL_Prepare() N/A
T2C18 000:551.007   OFL: SEGGER_FL_Restore() N/A
T2C18 000:551.026   OFL: SEGGER_FL_EraseChip() N/A
T2C18 000:551.045   OFL var <SEGGER_FL_GoIntEn>: N/A
T2C18 000:551.063   OFL var <SEGGER_FL_Flags>: N/A
T2C18 000:557.521   Device "AC7840X" selected.
T2C18 000:563.129 - 14.695ms returns 0x00
T2C18 000:563.166 JLINK_ExecCommand("DisableConnectionTimeout", ...). 
T2C18 000:563.203   ERROR: Unknown command
T2C18 000:563.215 - 0.036ms returns 0x01
T2C18 000:563.226 JLINK_GetHardwareVersion()
T2C18 000:563.236 - 0.009ms returns 120000
T2C18 000:563.245 JLINK_GetDLLVersion()
T2C18 000:563.253 - 0.008ms returns 83800
T2C18 000:563.265 JLINK_GetOEMString(...)
T2C18 000:563.276 JLINK_GetFirmwareString(...)
T2C18 000:563.284 - 0.008ms 
T2C18 000:581.952 JLINK_GetDLLVersion()
T2C18 000:581.980 - 0.027ms returns 83800
T2C18 000:581.989 JLINK_GetCompileDateTime()
T2C18 000:581.995 - 0.005ms 
T2C18 000:584.124 JLINK_GetFirmwareString(...)
T2C18 000:584.141 - 0.017ms 
T2C18 000:585.971 JLINK_GetHardwareVersion()
T2C18 000:585.983 - 0.011ms returns 120000
T2C18 000:587.576 JLINK_GetSN()
T2C18 000:587.588 - 0.011ms returns 601012352
T2C18 000:589.108 JLINK_GetOEMString(...)
T2C18 000:594.953 JLINK_TIF_Select(JLINKARM_TIF_SWD)
T2C18 000:595.766 - 0.822ms returns 0x00
T2C18 000:595.790 JLINK_HasError()
T2C18 000:595.805 JLINK_SetSpeed(5000)
T2C18 000:595.986 - 0.182ms 
T2C18 000:595.994 JLINK_GetId()
T2C18 000:598.928   Found SW-DP with ID 0x2BA01477
T2C18 000:604.454   DPIDR: 0x2BA01477
T2C18 000:606.530   CoreSight SoC-400 or earlier
T2C18 000:612.779   Scanning AP map to find all available APs
T2C18 000:615.956   AP[1]: Stopped AP scan as end of AP map has been reached
T2C18 000:618.093   AP[0]: AHB-AP (IDR: 0x24770011, ADDR: 0x00000000)
T2C18 000:620.287   Iterating through AP map to find AHB-AP to use
T2C18 000:625.248   AP[0]: Core found
T2C18 000:630.091   AP[0]: AHB-AP ROM base: 0xE00FF000
T2C18 000:632.638   CPUID register: 0x410FC241. Implementer code: 0x41 (ARM)
T2C18 000:635.288   Found Cortex-M4 r0p1, Little endian.
T2C18 000:640.236   -- Max. mem block: 0x00003FA8
T2C18 000:643.999   Cortex-M: The connected J-Link (S/N 601012352) uses an old firmware module: V1 (current is 3)
T2C18 000:644.491   CPU_ReadMem(4 bytes @ 0xE000EDF0)
T2C18 000:644.989   CPU_WriteMem(4 bytes @ 0xE000EDF0)
T2C18 000:645.210   CPU_ReadMem(4 bytes @ 0xE0002000)
T2C18 000:648.560   FPUnit: 6 code (BP) slots and 2 literal slots
T2C18 000:648.598   CPU_ReadMem(4 bytes @ 0xE000EDFC)
T2C18 000:648.873   CPU_WriteMem(4 bytes @ 0xE000EDFC)
T2C18 000:649.102   CPU_ReadMem(4 bytes @ 0xE0001000)
T2C18 000:649.340   CPU_WriteMem(4 bytes @ 0xE0001000)
T2C18 000:649.620   CPU_ReadMem(4 bytes @ 0xE000ED88)
T2C18 000:649.850   CPU_WriteMem(4 bytes @ 0xE000ED88)
T2C18 000:650.119   CPU_ReadMem(4 bytes @ 0xE000ED88)
T2C18 000:650.370   CPU_WriteMem(4 bytes @ 0xE000ED88)
T2C18 000:654.012   CoreSight components:
T2C18 000:656.682   ROMTbl[0] @ E00FF000
T2C18 000:656.710   CPU_ReadMem(64 bytes @ 0xE00FF000)
T2C18 000:657.138   CPU_ReadMem(32 bytes @ 0xE000EFE0)
T2C18 000:661.611   [0][0]: E000E000 CID B105E00D PID 000BB00C SCS-M7
T2C18 000:661.656   CPU_ReadMem(32 bytes @ 0xE0001FE0)
T2C18 000:664.803   [0][1]: E0001000 CID B105E00D PID 003BB002 DWT
T2C18 000:664.834   CPU_ReadMem(32 bytes @ 0xE0002FE0)
T2C18 000:667.837   [0][2]: E0002000 CID B105E00D PID 002BB003 FPB
T2C18 000:667.860   CPU_ReadMem(32 bytes @ 0xE0000FE0)
T2C18 000:671.369   [0][3]: E0000000 CID B105E00D PID 003BB001 ITM
T2C18 000:671.396   CPU_ReadMem(32 bytes @ 0xE0040FE0)
T2C18 000:676.489   [0][4]: E0040000 CID B105900D PID 000BB9A1 TPIU
T2C18 000:681.556 - 85.559ms returns 0x2BA01477
T2C18 000:681.595 JLINK_GetDLLVersion()
T2C18 000:681.604 - 0.009ms returns 83800
T2C18 000:681.692 JLINK_CORE_GetFound()
T2C18 000:681.702 - 0.009ms returns 0xE0000FF
T2C18 000:681.713 JLINK_GetDebugInfo(0x100 = JLINKARM_ROM_TABLE_ADDR_INDEX)
T2C18 000:681.723   Value=0xE00FF000
T2C18 000:681.736 - 0.023ms returns 0
T2C18 000:684.932 JLINK_GetDebugInfo(0x100 = JLINKARM_ROM_TABLE_ADDR_INDEX)
T2C18 000:684.958   Value=0xE00FF000
T2C18 000:684.969 - 0.038ms returns 0
T2C18 000:684.979 JLINK_GetDebugInfo(0x101 = JLINKARM_DEBUG_INFO_ETM_ADDR_INDEX)
T2C18 000:684.986   Value=0x00000000
T2C18 000:684.996 - 0.018ms returns 0
T2C18 000:685.007 JLINK_ReadMem(0xE0041FF0, 0x10 Bytes, ...)
T2C18 000:691.953   CPU_ReadMem(16 bytes @ 0xE0041FF0)
T2C18 000:692.331   Data:  00 00 00 00 00 00 00 00 00 00 00 00 00 00 00 00
T2C18 000:692.363 - 7.356ms returns 0
T2C18 000:692.381 JLINK_GetDebugInfo(0x102 = JLINKARM_DEBUG_INFO_MTB_ADDR_INDEX)
T2C18 000:692.392   Value=0x00000000
T2C18 000:692.405 - 0.025ms returns 0
T2C18 000:692.417 JLINK_GetDebugInfo(0x103 = JLINKARM_DEBUG_INFO_TPIU_ADDR_INDEX)
T2C18 000:692.426   Value=0xE0040000
T2C18 000:692.440 - 0.023ms returns 0
T2C18 000:692.451 JLINK_GetDebugInfo(0x104 = JLINKARM_DEBUG_INFO_ITM_ADDR_INDEX)
T2C18 000:692.461   Value=0xE0000000
T2C18 000:692.474 - 0.023ms returns 0
T2C18 000:692.485 JLINK_GetDebugInfo(0x105 = JLINKARM_DEBUG_INFO_DWT_ADDR_INDEX)
T2C18 000:692.494   Value=0xE0001000
T2C18 000:692.508 - 0.023ms returns 0
T2C18 000:692.519 JLINK_GetDebugInfo(0x106 = JLINKARM_DEBUG_INFO_FPB_ADDR_INDEX)
T2C18 000:692.528   Value=0xE0002000
T2C18 000:692.541 - 0.023ms returns 0
T2C18 000:692.553 JLINK_GetDebugInfo(0x107 = JLINKARM_DEBUG_INFO_NVIC_ADDR_INDEX)
T2C18 000:692.651   Value=0xE000E000
T2C18 000:692.697 - 0.143ms returns 0
T2C18 000:692.823 JLINK_GetDebugInfo(0x10C = JLINKARM_DEBUG_INFO_DBG_ADDR_INDEX)
T2C18 000:692.846   Value=0xE000EDF0
T2C18 000:692.888 - 0.066ms returns 0
T2C18 000:692.905 JLINK_ReadMemU32(0xE000EF40, 0x1 Items)
T2C18 000:692.927   CPU_ReadMem(4 bytes @ 0xE000EF40)
T2C18 000:693.176   Data:  21 00 11 10
T2C18 000:693.193 - 0.288ms returns 1 (0x1)
T2C18 000:693.206 JLINK_ReadMemU32(0xE000EF44, 0x1 Items)
T2C18 000:693.219   CPU_ReadMem(4 bytes @ 0xE000EF44)
T2C18 000:693.497   Data:  11 00 00 11
T2C18 000:693.512 - 0.305ms returns 1 (0x1)
T2C18 000:693.524 JLINK_ReadMemU32(0xE000ED00, 0x1 Items)
T2C18 000:693.535   CPU_ReadMem(4 bytes @ 0xE000ED00)
T2C18 000:693.886   Data:  41 C2 0F 41
T2C18 000:693.903   Debug reg: CPUID
T2C18 000:693.971 - 0.445ms returns 1 (0x1)
T2C18 000:694.004 JLINK_HasError()
T2C18 000:694.052 JLINK_SetResetType(JLINKARM_CM3_RESET_TYPE_NORMAL)
T2C18 000:694.066 - 0.014ms returns JLINKARM_CM3_RESET_TYPE_NORMAL
T2C18 000:694.077 JLINK_Reset()
T2C18 000:694.100   JLINK_GetResetTypeDesc
T2C18 000:694.110   - 0.010ms 
T2C18 000:699.516   Reset type: NORMAL (https://wiki.segger.com/J-Link_Reset_Strategies)
T2C18 000:699.731   CPU is running
T2C18 000:699.752   CPU_WriteMem(4 bytes @ 0xE000EDF0)
T2C18 000:700.032   CPU is running
T2C18 000:700.045   CPU_WriteMem(4 bytes @ 0xE000EDFC)
T2C18 000:703.553   Reset: Halt core after reset via DEMCR.VC_CORERESET.
T2C18 000:706.438   Reset: Reset device via AIRCR.SYSRESETREQ.
T2C18 000:706.461   CPU is running
T2C18 000:706.475   CPU_WriteMem(4 bytes @ 0xE000ED0C)
T2C18 000:760.860   CPU_ReadMem(4 bytes @ 0xE000EDF0)
T2C18 000:761.381   CPU_ReadMem(4 bytes @ 0xE000EDF0)
T2C18 000:768.929   CPU_WriteMem(4 bytes @ 0xE000EDFC)
T2C18 000:774.721   CPU_ReadMem(4 bytes @ 0xE000EDF0)
T2C18 000:777.328   CPU_WriteMem(4 bytes @ 0xE0002000)
T2C18 000:777.733   CPU_ReadMem(4 bytes @ 0xE000EDFC)
T2C18 000:778.101   CPU_ReadMem(4 bytes @ 0xE0001000)
T2C18 000:778.487 - 84.408ms 
T2C18 000:778.522 JLINK_Halt()
T2C18 000:778.535 - 0.012ms returns 0x00
T2C18 000:778.550 JLINK_IsHalted()
T2C18 000:778.635 - 0.082ms returns TRUE
T2C18 000:778.671 JLINK_ReadMemU32(0xE000EDF0, 0x1 Items)
T2C18 000:778.707   CPU_ReadMem(4 bytes @ 0xE000EDF0)
T2C18 000:779.062   Data:  03 00 03 00
T2C18 000:779.082   Debug reg: DHCSR
T2C18 000:779.101 - 0.429ms returns 1 (0x1)
T2C18 000:779.122 JLINK_WriteU32(0xE000EDF0, 0xA05F0003)
T2C18 000:779.134   Debug reg: DHCSR
T2C18 000:779.779   CPU_WriteMem(4 bytes @ 0xE000EDF0)
T2C18 000:780.139 - 1.017ms returns 0 (0x00000000)
T2C18 000:780.160 JLINK_WriteU32(0xE000EDFC, 0x01000000)
T2C18 000:780.172   Debug reg: DEMCR
T2C18 000:780.193   CPU_WriteMem(4 bytes @ 0xE000EDFC)
T2C18 000:780.450 - 0.290ms returns 0 (0x00000000)
T2C18 000:801.365 JLINK_GetHWStatus(...)
T2C18 000:801.726 - 0.360ms returns 0
T2C18 000:814.454 JLINK_GetNumBPUnits(Type = 0xFFFFFF00)
T2C18 000:814.493 - 0.038ms returns 0x06
T2C18 000:814.504 JLINK_GetNumBPUnits(Type = 0xF0)
T2C18 000:814.513 - 0.009ms returns 0x2000
T2C18 000:814.523 JLINK_GetNumWPUnits()
T2C18 000:814.532 - 0.008ms returns 4
T2C18 000:821.663 JLINK_GetSpeed()
T2C18 000:821.684 - 0.021ms returns 5000
T2C18 000:826.521 JLINK_ReadMemU32(0xE000E004, 0x1 Items)
T2C18 000:826.558   CPU_ReadMem(4 bytes @ 0xE000E004)
T2C18 000:826.969   Data:  02 00 00 00
T2C18 000:826.980 - 0.459ms returns 1 (0x1)
T2C18 000:826.988 JLINK_ReadMemU32(0xE000E004, 0x1 Items)
T2C18 000:826.997   CPU_ReadMem(4 bytes @ 0xE000E004)
T2C18 000:827.354   Data:  02 00 00 00
T2C18 000:827.398 - 0.409ms returns 1 (0x1)
T2C18 000:827.423 JLINK_WriteMem(0xE0001000, 0x1C Bytes, ...)
T2C18 000:827.439   Data:  01 00 00 00 00 00 00 00 00 00 00 00 00 00 00 00 ...
T2C18 000:827.475   CPU_WriteMem(28 bytes @ 0xE0001000)
T2C18 000:827.831 - 0.409ms returns 0x1C
T2C18 000:827.841 JLINK_ReadMem(0xE0001000, 0x1C Bytes, ...)
T2C18 000:827.850   CPU_ReadMem(28 bytes @ 0xE0001000)
T2C18 000:828.174   Data:  01 00 00 40 00 00 00 00 00 00 00 00 00 00 00 00 ...
T2C18 000:828.183 - 0.341ms returns 0
T2C18 000:828.194 JLINK_Halt()
T2C18 000:828.200 - 0.006ms returns 0x00
T2C18 000:828.208 JLINK_IsHalted()
T2C18 000:828.215 - 0.006ms returns TRUE
T2C18 000:831.664 JLINK_WriteMem(0x1FFF0000, 0x348 Bytes, ...)
T2C18 000:831.676   Data:  00 BE 0A E0 0D 78 2D 06 68 40 08 24 40 00 00 D3 ...
T2C18 000:831.985   CPU_WriteMem(840 bytes @ 0x1FFF0000)
T2C18 000:834.662 - 2.997ms returns 0x348
T2C18 000:834.721 JLINK_HasError()
T2C18 000:834.732 JLINK_WriteReg(R0, 0x00000000)
T2C18 000:834.742 - 0.010ms returns 0
T2C18 000:834.750 JLINK_WriteReg(R1, 0x00B71B00)
T2C18 000:834.757 - 0.007ms returns 0
T2C18 000:834.765 JLINK_WriteReg(R2, 0x00000001)
T2C18 000:834.771 - 0.006ms returns 0
T2C18 000:834.779 JLINK_WriteReg(R3, 0x00000000)
T2C18 000:834.786 - 0.006ms returns 0
T2C18 000:834.794 JLINK_WriteReg(R4, 0x00000000)
T2C18 000:834.800 - 0.006ms returns 0
T2C18 000:834.808 JLINK_WriteReg(R5, 0x00000000)
T2C18 000:834.815 - 0.006ms returns 0
T2C18 000:834.823 JLINK_WriteReg(R6, 0x00000000)
T2C18 000:834.829 - 0.006ms returns 0
T2C18 000:834.837 JLINK_WriteReg(R7, 0x00000000)
T2C18 000:834.844 - 0.006ms returns 0
T2C18 000:834.852 JLINK_WriteReg(R8, 0x00000000)
T2C18 000:834.858 - 0.006ms returns 0
T2C18 000:834.866 JLINK_WriteReg(R9, 0x1FFF0344)
T2C18 000:834.873 - 0.006ms returns 0
T2C18 000:834.881 JLINK_WriteReg(R10, 0x00000000)
T2C18 000:834.887 - 0.006ms returns 0
T2C18 000:834.895 JLINK_WriteReg(R11, 0x00000000)
T2C18 000:834.902 - 0.007ms returns 0
T2C18 000:834.911 JLINK_WriteReg(R12, 0x00000000)
T2C18 000:834.918 - 0.007ms returns 0
T2C18 000:834.926 JLINK_WriteReg(R13 (SP), 0x1FFF1000)
T2C18 000:834.933 - 0.007ms returns 0
T2C18 000:834.941 JLINK_WriteReg(R14, 0x1FFF0001)
T2C18 000:834.948 - 0.007ms returns 0
T2C18 000:834.962 JLINK_WriteReg(R15 (PC), 0x1FFF0040)
T2C18 000:834.969 - 0.013ms returns 0
T2C18 000:834.978 JLINK_WriteReg(XPSR, 0x01000000)
T2C18 000:834.985 - 0.007ms returns 0
T2C18 000:834.993 JLINK_WriteReg(MSP, 0x1FFF1000)
T2C18 000:835.000 - 0.007ms returns 0
T2C18 000:835.008 JLINK_WriteReg(PSP, 0x1FFF1000)
T2C18 000:835.015 - 0.007ms returns 0
T2C18 000:835.026 JLINK_WriteReg(CFBP, 0x00000000)
T2C18 000:835.035 - 0.009ms returns 0
T2C18 000:835.044 JLINK_SetBPEx(Addr = 0x1FFF0000, Type = 0xFFFFFFF2)
T2C18 000:835.052 - 0.009ms returns 0x00000001
T2C18 000:835.060 JLINK_Go()
T2C18 000:835.072   CPU_WriteMem(4 bytes @ 0xE0002000)
T2C18 000:835.364   CPU_ReadMem(4 bytes @ 0xE0001000)
T2C18 000:835.629   CPU_WriteMem(4 bytes @ 0xE0002008)
T2C18 000:835.641   CPU_WriteMem(4 bytes @ 0xE000200C)
T2C18 000:835.651   CPU_WriteMem(4 bytes @ 0xE0002010)
T2C18 000:835.662   CPU_WriteMem(4 bytes @ 0xE0002014)
T2C18 000:835.673   CPU_WriteMem(4 bytes @ 0xE0002018)
T2C18 000:835.683   CPU_WriteMem(4 bytes @ 0xE000201C)
T2C18 000:836.500   CPU_WriteMem(4 bytes @ 0xE0001004)
T2C18 000:841.936   Memory map 'after startup completion point' is active
T2C18 000:841.970 - 6.908ms 
T2C18 000:841.984 JLINK_IsHalted()
T2C18 000:844.649 - 2.664ms returns TRUE
T2C18 000:844.667 JLINK_ReadReg(R15 (PC))
T2C18 000:844.680 - 0.012ms returns 0x1FFF0000
T2C18 000:844.690 JLINK_ClrBPEx(BPHandle = 0x00000001)
T2C18 000:844.701 - 0.010ms returns 0x00
T2C18 000:844.711 JLINK_ReadReg(R0)
T2C18 000:844.721 - 0.009ms returns 0x00000000
T2C18 000:845.134 JLINK_HasError()
T2C18 000:845.155 JLINK_WriteReg(R0, 0x00000000)
T2C18 000:845.166 - 0.011ms returns 0
T2C18 000:845.177 JLINK_WriteReg(R1, 0x00000800)
T2C18 000:845.187 - 0.009ms returns 0
T2C18 000:845.197 JLINK_WriteReg(R2, 0x000000FF)
T2C18 000:845.206 - 0.009ms returns 0
T2C18 000:845.216 JLINK_WriteReg(R3, 0x00000000)
T2C18 000:845.225 - 0.009ms returns 0
T2C18 000:845.235 JLINK_WriteReg(R4, 0x00000000)
T2C18 000:845.244 - 0.008ms returns 0
T2C18 000:845.254 JLINK_WriteReg(R5, 0x00000000)
T2C18 000:845.263 - 0.008ms returns 0
T2C18 000:845.273 JLINK_WriteReg(R6, 0x00000000)
T2C18 000:845.281 - 0.009ms returns 0
T2C18 000:845.292 JLINK_WriteReg(R7, 0x00000000)
T2C18 000:845.300 - 0.008ms returns 0
T2C18 000:845.311 JLINK_WriteReg(R8, 0x00000000)
T2C18 000:845.320 - 0.009ms returns 0
T2C18 000:845.330 JLINK_WriteReg(R9, 0x1FFF0344)
T2C18 000:845.339 - 0.008ms returns 0
T2C18 000:845.349 JLINK_WriteReg(R10, 0x00000000)
T2C18 000:845.358 - 0.009ms returns 0
T2C18 000:845.368 JLINK_WriteReg(R11, 0x00000000)
T2C18 000:845.377 - 0.009ms returns 0
T2C18 000:845.387 JLINK_WriteReg(R12, 0x00000000)
T2C18 000:845.396 - 0.008ms returns 0
T2C18 000:845.406 JLINK_WriteReg(R13 (SP), 0x1FFF1000)
T2C18 000:845.416 - 0.009ms returns 0
T2C18 000:845.426 JLINK_WriteReg(R14, 0x1FFF0001)
T2C18 000:845.435 - 0.009ms returns 0
T2C18 000:845.445 JLINK_WriteReg(R15 (PC), 0x1FFF0090)
T2C18 000:845.454 - 0.009ms returns 0
T2C18 000:845.464 JLINK_WriteReg(XPSR, 0x01000000)
T2C18 000:845.473 - 0.009ms returns 0
T2C18 000:845.483 JLINK_WriteReg(MSP, 0x1FFF1000)
T2C18 000:845.492 - 0.008ms returns 0
T2C18 000:845.502 JLINK_WriteReg(PSP, 0x1FFF1000)
T2C18 000:845.511 - 0.008ms returns 0
T2C18 000:845.521 JLINK_WriteReg(CFBP, 0x00000000)
T2C18 000:845.530 - 0.008ms returns 0
T2C18 000:845.541 JLINK_SetBPEx(Addr = 0x1FFF0000, Type = 0xFFFFFFF2)
T2C18 000:845.552 - 0.011ms returns 0x00000002
T2C18 000:845.563 JLINK_Go()
T2C18 000:845.579   CPU_WriteMem(4 bytes @ 0xE0002000)
T2C18 000:845.902   CPU_ReadMem(4 bytes @ 0xE0001000)
T2C18 000:847.844 - 2.280ms 
T2C18 000:847.864 JLINK_IsHalted()
T2C18 000:849.614 - 1.748ms returns TRUE
T2C18 000:849.662 JLINK_ReadReg(R15 (PC))
T2C18 000:849.684 - 0.022ms returns 0x1FFF0000
T2C18 000:849.703 JLINK_ClrBPEx(BPHandle = 0x00000002)
T2C18 000:849.721 - 0.017ms returns 0x00
T2C18 000:849.739 JLINK_ReadReg(R0)
T2C18 000:849.755 - 0.015ms returns 0x00000001
T2C18 000:849.775 JLINK_HasError()
T2C18 000:849.795 JLINK_WriteReg(R0, 0x00000000)
T2C18 000:849.813 - 0.017ms returns 0
T2C18 000:849.832 JLINK_WriteReg(R1, 0x00000800)
T2C18 000:849.849 - 0.017ms returns 0
T2C18 000:849.868 JLINK_WriteReg(R2, 0x000000FF)
T2C18 000:849.884 - 0.016ms returns 0
T2C18 000:849.902 JLINK_WriteReg(R3, 0x00000000)
T2C18 000:849.918 - 0.015ms returns 0
T2C18 000:849.936 JLINK_WriteReg(R4, 0x00000000)
T2C18 000:849.959 - 0.023ms returns 0
T2C18 000:849.983 JLINK_WriteReg(R5, 0x00000000)
T2C18 000:849.999 - 0.015ms returns 0
T2C18 000:850.016 JLINK_WriteReg(R6, 0x00000000)
T2C18 000:850.032 - 0.015ms returns 0
T2C18 000:850.049 JLINK_WriteReg(R7, 0x00000000)
T2C18 000:850.064 - 0.014ms returns 0
T2C18 000:850.081 JLINK_WriteReg(R8, 0x00000000)
T2C18 000:850.096 - 0.014ms returns 0
T2C18 000:850.113 JLINK_WriteReg(R9, 0x1FFF0344)
T2C18 000:850.128 - 0.014ms returns 0
T2C18 000:850.145 JLINK_WriteReg(R10, 0x00000000)
T2C18 000:850.160 - 0.015ms returns 0
T2C18 000:850.177 JLINK_WriteReg(R11, 0x00000000)
T2C18 000:850.192 - 0.014ms returns 0
T2C18 000:850.209 JLINK_WriteReg(R12, 0x00000000)
T2C18 000:850.224 - 0.014ms returns 0
T2C18 000:850.241 JLINK_WriteReg(R13 (SP), 0x1FFF1000)
T2C18 000:850.256 - 0.015ms returns 0
T2C18 000:850.274 JLINK_WriteReg(R14, 0x1FFF0001)
T2C18 000:850.289 - 0.015ms returns 0
T2C18 000:850.306 JLINK_WriteReg(R15 (PC), 0x1FFF00C4)
T2C18 000:850.321 - 0.015ms returns 0
T2C18 000:850.338 JLINK_WriteReg(XPSR, 0x01000000)
T2C18 000:850.353 - 0.015ms returns 0
T2C18 000:850.371 JLINK_WriteReg(MSP, 0x1FFF1000)
T2C18 000:850.385 - 0.014ms returns 0
T2C18 000:850.403 JLINK_WriteReg(PSP, 0x1FFF1000)
T2C18 000:850.417 - 0.014ms returns 0
T2C18 000:850.434 JLINK_WriteReg(CFBP, 0x00000000)
T2C18 000:850.449 - 0.014ms returns 0
T2C18 000:850.467 JLINK_SetBPEx(Addr = 0x1FFF0000, Type = 0xFFFFFFF2)
T2C18 000:850.484 - 0.017ms returns 0x00000003
T2C18 000:850.502 JLINK_Go()
T2C18 000:850.524   CPU_WriteMem(4 bytes @ 0xE0002000)
T2C18 000:850.862   CPU_ReadMem(4 bytes @ 0xE0001000)
T2C18 000:852.810 - 2.307ms 
T2C18 000:852.826 JLINK_IsHalted()
T2C18 000:853.097 - 0.270ms returns FALSE
T2C18 000:853.111 JLINK_HasError()
T2C18 000:885.089 JLINK_IsHalted()
T2C18 000:886.970 - 1.880ms returns TRUE
T2C18 000:886.988 JLINK_ReadReg(R15 (PC))
T2C18 000:887.000 - 0.012ms returns 0x1FFF0000
T2C18 000:887.011 JLINK_ClrBPEx(BPHandle = 0x00000003)
T2C18 000:887.021 - 0.010ms returns 0x00
T2C18 000:887.031 JLINK_ReadReg(R0)
T2C18 000:887.040 - 0.009ms returns 0x00000000
T2C18 000:887.740 JLINK_HasError()
T2C18 000:887.759 JLINK_WriteReg(R0, 0x00000800)
T2C18 000:887.770 - 0.010ms returns 0
T2C18 000:887.780 JLINK_WriteReg(R1, 0x00000800)
T2C18 000:887.789 - 0.008ms returns 0
T2C18 000:887.798 JLINK_WriteReg(R2, 0x000000FF)
T2C18 000:887.807 - 0.008ms returns 0
T2C18 000:887.816 JLINK_WriteReg(R3, 0x00000000)
T2C18 000:887.825 - 0.008ms returns 0
T2C18 000:887.835 JLINK_WriteReg(R4, 0x00000000)
T2C18 000:887.843 - 0.008ms returns 0
T2C18 000:887.853 JLINK_WriteReg(R5, 0x00000000)
T2C18 000:887.861 - 0.008ms returns 0
T2C18 000:887.871 JLINK_WriteReg(R6, 0x00000000)
T2C18 000:887.879 - 0.008ms returns 0
T2C18 000:887.889 JLINK_WriteReg(R7, 0x00000000)
T2C18 000:887.897 - 0.008ms returns 0
T2C18 000:887.907 JLINK_WriteReg(R8, 0x00000000)
T2C18 000:887.915 - 0.008ms returns 0
T2C18 000:887.925 JLINK_WriteReg(R9, 0x1FFF0344)
T2C18 000:887.933 - 0.008ms returns 0
T2C18 000:887.943 JLINK_WriteReg(R10, 0x00000000)
T2C18 000:887.952 - 0.008ms returns 0
T2C18 000:887.961 JLINK_WriteReg(R11, 0x00000000)
T2C18 000:887.970 - 0.008ms returns 0
T2C18 000:887.979 JLINK_WriteReg(R12, 0x00000000)
T2C18 000:887.988 - 0.008ms returns 0
T2C18 000:887.998 JLINK_WriteReg(R13 (SP), 0x1FFF1000)
T2C18 000:888.007 - 0.009ms returns 0
T2C18 000:888.016 JLINK_WriteReg(R14, 0x1FFF0001)
T2C18 000:888.025 - 0.008ms returns 0
T2C18 000:888.035 JLINK_WriteReg(R15 (PC), 0x1FFF0090)
T2C18 000:888.059 - 0.024ms returns 0
T2C18 000:888.070 JLINK_WriteReg(XPSR, 0x01000000)
T2C18 000:888.078 - 0.008ms returns 0
T2C18 000:888.088 JLINK_WriteReg(MSP, 0x1FFF1000)
T2C18 000:888.097 - 0.008ms returns 0
T2C18 000:888.106 JLINK_WriteReg(PSP, 0x1FFF1000)
T2C18 000:888.115 - 0.008ms returns 0
T2C18 000:888.124 JLINK_WriteReg(CFBP, 0x00000000)
T2C18 000:888.133 - 0.008ms returns 0
T2C18 000:888.144 JLINK_SetBPEx(Addr = 0x1FFF0000, Type = 0xFFFFFFF2)
T2C18 000:888.154 - 0.011ms returns 0x00000004
T2C18 000:888.237 JLINK_Go()
T2C18 000:888.255   CPU_WriteMem(4 bytes @ 0xE0002000)
T2C18 000:888.544   CPU_ReadMem(4 bytes @ 0xE0001000)
T2C18 000:890.494 - 2.255ms 
T2C18 000:890.522 JLINK_IsHalted()
T2C18 000:892.403 - 1.880ms returns TRUE
T2C18 000:892.436 JLINK_ReadReg(R15 (PC))
T2C18 000:892.448 - 0.012ms returns 0x1FFF0000
T2C18 000:892.458 JLINK_ClrBPEx(BPHandle = 0x00000004)
T2C18 000:892.468 - 0.009ms returns 0x00
T2C18 000:892.479 JLINK_ReadReg(R0)
T2C18 000:892.487 - 0.008ms returns 0x00000001
T2C18 000:892.498 JLINK_HasError()
T2C18 000:892.509 JLINK_WriteReg(R0, 0x00000800)
T2C18 000:892.519 - 0.010ms returns 0
T2C18 000:892.529 JLINK_WriteReg(R1, 0x00000800)
T2C18 000:892.538 - 0.008ms returns 0
T2C18 000:892.547 JLINK_WriteReg(R2, 0x000000FF)
T2C18 000:892.556 - 0.008ms returns 0
T2C18 000:892.565 JLINK_WriteReg(R3, 0x00000000)
T2C18 000:892.574 - 0.008ms returns 0
T2C18 000:892.583 JLINK_WriteReg(R4, 0x00000000)
T2C18 000:892.592 - 0.008ms returns 0
T2C18 000:892.602 JLINK_WriteReg(R5, 0x00000000)
T2C18 000:892.610 - 0.008ms returns 0
T2C18 000:892.620 JLINK_WriteReg(R6, 0x00000000)
T2C18 000:892.628 - 0.008ms returns 0
T2C18 000:892.638 JLINK_WriteReg(R7, 0x00000000)
T2C18 000:892.646 - 0.008ms returns 0
T2C18 000:892.656 JLINK_WriteReg(R8, 0x00000000)
T2C18 000:892.664 - 0.008ms returns 0
T2C18 000:892.674 JLINK_WriteReg(R9, 0x1FFF0344)
T2C18 000:892.682 - 0.008ms returns 0
T2C18 000:892.692 JLINK_WriteReg(R10, 0x00000000)
T2C18 000:892.701 - 0.008ms returns 0
T2C18 000:892.710 JLINK_WriteReg(R11, 0x00000000)
T2C18 000:892.719 - 0.008ms returns 0
T2C18 000:892.728 JLINK_WriteReg(R12, 0x00000000)
T2C18 000:892.737 - 0.008ms returns 0
T2C18 000:892.747 JLINK_WriteReg(R13 (SP), 0x1FFF1000)
T2C18 000:892.756 - 0.009ms returns 0
T2C18 000:892.765 JLINK_WriteReg(R14, 0x1FFF0001)
T2C18 000:892.774 - 0.008ms returns 0
T2C18 000:892.784 JLINK_WriteReg(R15 (PC), 0x1FFF00C4)
T2C18 000:892.792 - 0.008ms returns 0
T2C18 000:892.802 JLINK_WriteReg(XPSR, 0x01000000)
T2C18 000:892.810 - 0.008ms returns 0
T2C18 000:892.820 JLINK_WriteReg(MSP, 0x1FFF1000)
T2C18 000:892.828 - 0.008ms returns 0
T2C18 000:892.838 JLINK_WriteReg(PSP, 0x1FFF1000)
T2C18 000:892.846 - 0.008ms returns 0
T2C18 000:892.856 JLINK_WriteReg(CFBP, 0x00000000)
T2C18 000:892.864 - 0.008ms returns 0
T2C18 000:892.875 JLINK_SetBPEx(Addr = 0x1FFF0000, Type = 0xFFFFFFF2)
T2C18 000:892.884 - 0.010ms returns 0x00000005
T2C18 000:892.894 JLINK_Go()
T2C18 000:892.909   CPU_WriteMem(4 bytes @ 0xE0002000)
T2C18 000:893.271   CPU_ReadMem(4 bytes @ 0xE0001000)
T2C18 000:895.207 - 2.312ms 
T2C18 000:895.235 JLINK_IsHalted()
T2C18 000:895.507 - 0.272ms returns FALSE
T2C18 000:895.519 JLINK_HasError()
T2C18 000:897.034 JLINK_IsHalted()
T2C18 000:898.936 - 1.902ms returns TRUE
T2C18 000:898.956 JLINK_ReadReg(R15 (PC))
T2C18 000:898.969 - 0.013ms returns 0x1FFF0000
T2C18 000:898.981 JLINK_ClrBPEx(BPHandle = 0x00000005)
T2C18 000:898.993 - 0.011ms returns 0x00
T2C18 000:899.005 JLINK_ReadReg(R0)
T2C18 000:899.015 - 0.010ms returns 0x00000000
T2C18 000:899.910 JLINK_HasError()
T2C18 000:899.932 JLINK_WriteReg(R0, 0x00001000)
T2C18 000:899.946 - 0.013ms returns 0
T2C18 000:899.957 JLINK_WriteReg(R1, 0x00000800)
T2C18 000:899.968 - 0.010ms returns 0
T2C18 000:899.979 JLINK_WriteReg(R2, 0x000000FF)
T2C18 000:899.989 - 0.010ms returns 0
T2C18 000:900.001 JLINK_WriteReg(R3, 0x00000000)
T2C18 000:900.011 - 0.010ms returns 0
T2C18 000:900.023 JLINK_WriteReg(R4, 0x00000000)
T2C18 000:900.033 - 0.010ms returns 0
T2C18 000:900.062 JLINK_WriteReg(R5, 0x00000000)
T2C18 000:900.073 - 0.010ms returns 0
T2C18 000:900.084 JLINK_WriteReg(R6, 0x00000000)
T2C18 000:900.094 - 0.010ms returns 0
T2C18 000:900.105 JLINK_WriteReg(R7, 0x00000000)
T2C18 000:900.115 - 0.010ms returns 0
T2C18 000:900.126 JLINK_WriteReg(R8, 0x00000000)
T2C18 000:900.136 - 0.010ms returns 0
T2C18 000:900.148 JLINK_WriteReg(R9, 0x1FFF0344)
T2C18 000:900.158 - 0.010ms returns 0
T2C18 000:900.169 JLINK_WriteReg(R10, 0x00000000)
T2C18 000:900.188 - 0.019ms returns 0
T2C18 000:900.200 JLINK_WriteReg(R11, 0x00000000)
T2C18 000:900.210 - 0.010ms returns 0
T2C18 000:900.222 JLINK_WriteReg(R12, 0x00000000)
T2C18 000:900.232 - 0.010ms returns 0
T2C18 000:900.244 JLINK_WriteReg(R13 (SP), 0x1FFF1000)
T2C18 000:900.254 - 0.011ms returns 0
T2C18 000:900.266 JLINK_WriteReg(R14, 0x1FFF0001)
T2C18 000:900.276 - 0.010ms returns 0
T2C18 000:900.287 JLINK_WriteReg(R15 (PC), 0x1FFF0090)
T2C18 000:900.297 - 0.010ms returns 0
T2C18 000:900.309 JLINK_WriteReg(XPSR, 0x01000000)
T2C18 000:900.319 - 0.010ms returns 0
T2C18 000:900.330 JLINK_WriteReg(MSP, 0x1FFF1000)
T2C18 000:900.340 - 0.010ms returns 0
T2C18 000:900.352 JLINK_WriteReg(PSP, 0x1FFF1000)
T2C18 000:900.362 - 0.010ms returns 0
T2C18 000:900.373 JLINK_WriteReg(CFBP, 0x00000000)
T2C18 000:900.383 - 0.010ms returns 0
T2C18 000:900.396 JLINK_SetBPEx(Addr = 0x1FFF0000, Type = 0xFFFFFFF2)
T2C18 000:900.409 - 0.013ms returns 0x00000006
T2C18 000:900.420 JLINK_Go()
T2C18 000:900.439   CPU_WriteMem(4 bytes @ 0xE0002000)
T2C18 000:900.775   CPU_ReadMem(4 bytes @ 0xE0001000)
T2C18 000:902.691 - 2.270ms 
T2C18 000:902.705 JLINK_IsHalted()
T2C18 000:904.440 - 1.733ms returns TRUE
T2C18 000:904.457 JLINK_ReadReg(R15 (PC))
T2C18 000:904.471 - 0.014ms returns 0x1FFF0000
T2C18 000:904.486 JLINK_ClrBPEx(BPHandle = 0x00000006)
T2C18 000:904.498 - 0.013ms returns 0x00
T2C18 000:904.513 JLINK_ReadReg(R0)
T2C18 000:904.525 - 0.012ms returns 0x00000001
T2C18 000:904.540 JLINK_HasError()
T2C18 000:904.554 JLINK_WriteReg(R0, 0x00001000)
T2C18 000:904.567 - 0.012ms returns 0
T2C18 000:904.581 JLINK_WriteReg(R1, 0x00000800)
T2C18 000:904.593 - 0.012ms returns 0
T2C18 000:904.607 JLINK_WriteReg(R2, 0x000000FF)
T2C18 000:904.620 - 0.012ms returns 0
T2C18 000:904.633 JLINK_WriteReg(R3, 0x00000000)
T2C18 000:904.646 - 0.012ms returns 0
T2C18 000:904.659 JLINK_WriteReg(R4, 0x00000000)
T2C18 000:904.671 - 0.012ms returns 0
T2C18 000:904.685 JLINK_WriteReg(R5, 0x00000000)
T2C18 000:904.697 - 0.012ms returns 0
T2C18 000:904.711 JLINK_WriteReg(R6, 0x00000000)
T2C18 000:904.723 - 0.012ms returns 0
T2C18 000:904.737 JLINK_WriteReg(R7, 0x00000000)
T2C18 000:904.749 - 0.012ms returns 0
T2C18 000:904.764 JLINK_WriteReg(R8, 0x00000000)
T2C18 000:904.776 - 0.012ms returns 0
T2C18 000:904.790 JLINK_WriteReg(R9, 0x1FFF0344)
T2C18 000:904.802 - 0.012ms returns 0
T2C18 000:904.815 JLINK_WriteReg(R10, 0x00000000)
T2C18 000:904.828 - 0.012ms returns 0
T2C18 000:904.841 JLINK_WriteReg(R11, 0x00000000)
T2C18 000:904.853 - 0.012ms returns 0
T2C18 000:904.867 JLINK_WriteReg(R12, 0x00000000)
T2C18 000:904.879 - 0.012ms returns 0
T2C18 000:904.894 JLINK_WriteReg(R13 (SP), 0x1FFF1000)
T2C18 000:904.906 - 0.012ms returns 0
T2C18 000:904.920 JLINK_WriteReg(R14, 0x1FFF0001)
T2C18 000:904.932 - 0.012ms returns 0
T2C18 000:904.947 JLINK_WriteReg(R15 (PC), 0x1FFF00C4)
T2C18 000:904.972 - 0.026ms returns 0
T2C18 000:904.987 JLINK_WriteReg(XPSR, 0x01000000)
T2C18 000:904.999 - 0.012ms returns 0
T2C18 000:905.013 JLINK_WriteReg(MSP, 0x1FFF1000)
T2C18 000:905.025 - 0.012ms returns 0
T2C18 000:905.039 JLINK_WriteReg(PSP, 0x1FFF1000)
T2C18 000:905.052 - 0.012ms returns 0
T2C18 000:905.066 JLINK_WriteReg(CFBP, 0x00000000)
T2C18 000:905.078 - 0.012ms returns 0
T2C18 000:905.093 JLINK_SetBPEx(Addr = 0x1FFF0000, Type = 0xFFFFFFF2)
T2C18 000:905.106 - 0.014ms returns 0x00000007
T2C18 000:905.120 JLINK_Go()
T2C18 000:905.137   CPU_WriteMem(4 bytes @ 0xE0002000)
T2C18 000:905.440   CPU_ReadMem(4 bytes @ 0xE0001000)
T2C18 000:907.769 - 2.647ms 
T2C18 000:907.813 JLINK_IsHalted()
T2C18 000:908.102 - 0.288ms returns FALSE
T2C18 000:908.121 JLINK_HasError()
T2C18 000:927.074 JLINK_IsHalted()
T2C18 000:928.928 - 1.854ms returns TRUE
T2C18 000:928.945 JLINK_ReadReg(R15 (PC))
T2C18 000:928.957 - 0.011ms returns 0x1FFF0000
T2C18 000:928.967 JLINK_ClrBPEx(BPHandle = 0x00000007)
T2C18 000:928.977 - 0.009ms returns 0x00
T2C18 000:929.061 JLINK_ReadReg(R0)
T2C18 000:929.076 - 0.014ms returns 0x00000000
T2C18 000:929.878 JLINK_HasError()
T2C18 000:929.899 JLINK_WriteReg(R0, 0x00001800)
T2C18 000:929.910 - 0.011ms returns 0
T2C18 000:929.920 JLINK_WriteReg(R1, 0x00000800)
T2C18 000:929.929 - 0.008ms returns 0
T2C18 000:929.938 JLINK_WriteReg(R2, 0x000000FF)
T2C18 000:929.946 - 0.008ms returns 0
T2C18 000:929.956 JLINK_WriteReg(R3, 0x00000000)
T2C18 000:929.963 - 0.008ms returns 0
T2C18 000:929.973 JLINK_WriteReg(R4, 0x00000000)
T2C18 000:929.981 - 0.008ms returns 0
T2C18 000:929.991 JLINK_WriteReg(R5, 0x00000000)
T2C18 000:930.034 - 0.043ms returns 0
T2C18 000:930.044 JLINK_WriteReg(R6, 0x00000000)
T2C18 000:930.052 - 0.008ms returns 0
T2C18 000:930.062 JLINK_WriteReg(R7, 0x00000000)
T2C18 000:930.072 - 0.010ms returns 0
T2C18 000:930.081 JLINK_WriteReg(R8, 0x00000000)
T2C18 000:930.089 - 0.007ms returns 0
T2C18 000:930.097 JLINK_WriteReg(R9, 0x1FFF0344)
T2C18 000:930.105 - 0.007ms returns 0
T2C18 000:930.114 JLINK_WriteReg(R10, 0x00000000)
T2C18 000:930.122 - 0.007ms returns 0
T2C18 000:930.131 JLINK_WriteReg(R11, 0x00000000)
T2C18 000:930.138 - 0.007ms returns 0
T2C18 000:930.147 JLINK_WriteReg(R12, 0x00000000)
T2C18 000:930.155 - 0.007ms returns 0
T2C18 000:930.164 JLINK_WriteReg(R13 (SP), 0x1FFF1000)
T2C18 000:930.172 - 0.008ms returns 0
T2C18 000:930.181 JLINK_WriteReg(R14, 0x1FFF0001)
T2C18 000:930.189 - 0.007ms returns 0
T2C18 000:930.198 JLINK_WriteReg(R15 (PC), 0x1FFF0090)
T2C18 000:930.205 - 0.008ms returns 0
T2C18 000:930.214 JLINK_WriteReg(XPSR, 0x01000000)
T2C18 000:930.222 - 0.007ms returns 0
T2C18 000:930.231 JLINK_WriteReg(MSP, 0x1FFF1000)
T2C18 000:930.239 - 0.008ms returns 0
T2C18 000:930.248 JLINK_WriteReg(PSP, 0x1FFF1000)
T2C18 000:930.256 - 0.008ms returns 0
T2C18 000:930.265 JLINK_WriteReg(CFBP, 0x00000000)
T2C18 000:930.273 - 0.007ms returns 0
T2C18 000:930.283 JLINK_SetBPEx(Addr = 0x1FFF0000, Type = 0xFFFFFFF2)
T2C18 000:930.293 - 0.010ms returns 0x00000008
T2C18 000:930.302 JLINK_Go()
T2C18 000:930.317   CPU_WriteMem(4 bytes @ 0xE0002000)
T2C18 000:930.602   CPU_ReadMem(4 bytes @ 0xE0001000)
T2C18 000:932.480 - 2.177ms 
T2C18 000:932.494 JLINK_IsHalted()
T2C18 000:934.228 - 1.733ms returns TRUE
T2C18 000:934.246 JLINK_ReadReg(R15 (PC))
T2C18 000:934.258 - 0.011ms returns 0x1FFF0000
T2C18 000:934.324 JLINK_ClrBPEx(BPHandle = 0x00000008)
T2C18 000:934.337 - 0.012ms returns 0x00
T2C18 000:934.348 JLINK_ReadReg(R0)
T2C18 000:934.359 - 0.010ms returns 0x00000001
T2C18 000:934.371 JLINK_HasError()
T2C18 000:934.384 JLINK_WriteReg(R0, 0x00001800)
T2C18 000:934.395 - 0.011ms returns 0
T2C18 000:934.407 JLINK_WriteReg(R1, 0x00000800)
T2C18 000:934.417 - 0.010ms returns 0
T2C18 000:934.428 JLINK_WriteReg(R2, 0x000000FF)
T2C18 000:934.438 - 0.010ms returns 0
T2C18 000:934.450 JLINK_WriteReg(R3, 0x00000000)
T2C18 000:934.460 - 0.010ms returns 0
T2C18 000:934.472 JLINK_WriteReg(R4, 0x00000000)
T2C18 000:934.482 - 0.010ms returns 0
T2C18 000:934.493 JLINK_WriteReg(R5, 0x00000000)
T2C18 000:934.503 - 0.010ms returns 0
T2C18 000:934.514 JLINK_WriteReg(R6, 0x00000000)
T2C18 000:934.524 - 0.010ms returns 0
T2C18 000:934.536 JLINK_WriteReg(R7, 0x00000000)
T2C18 000:934.546 - 0.010ms returns 0
T2C18 000:934.557 JLINK_WriteReg(R8, 0x00000000)
T2C18 000:934.567 - 0.010ms returns 0
T2C18 000:934.579 JLINK_WriteReg(R9, 0x1FFF0344)
T2C18 000:934.589 - 0.010ms returns 0
T2C18 000:934.600 JLINK_WriteReg(R10, 0x00000000)
T2C18 000:934.611 - 0.010ms returns 0
T2C18 000:934.622 JLINK_WriteReg(R11, 0x00000000)
T2C18 000:934.632 - 0.010ms returns 0
T2C18 000:934.644 JLINK_WriteReg(R12, 0x00000000)
T2C18 000:934.654 - 0.010ms returns 0
T2C18 000:934.665 JLINK_WriteReg(R13 (SP), 0x1FFF1000)
T2C18 000:934.676 - 0.011ms returns 0
T2C18 000:934.687 JLINK_WriteReg(R14, 0x1FFF0001)
T2C18 000:934.697 - 0.010ms returns 0
T2C18 000:934.709 JLINK_WriteReg(R15 (PC), 0x1FFF00C4)
T2C18 000:934.719 - 0.010ms returns 0
T2C18 000:934.730 JLINK_WriteReg(XPSR, 0x01000000)
T2C18 000:934.740 - 0.010ms returns 0
T2C18 000:934.752 JLINK_WriteReg(MSP, 0x1FFF1000)
T2C18 000:934.769 - 0.017ms returns 0
T2C18 000:934.781 JLINK_WriteReg(PSP, 0x1FFF1000)
T2C18 000:934.791 - 0.010ms returns 0
T2C18 000:934.802 JLINK_WriteReg(CFBP, 0x00000000)
T2C18 000:934.812 - 0.010ms returns 0
T2C18 000:934.824 JLINK_SetBPEx(Addr = 0x1FFF0000, Type = 0xFFFFFFF2)
T2C18 000:934.835 - 0.011ms returns 0x00000009
T2C18 000:934.846 JLINK_Go()
T2C18 000:934.860   CPU_WriteMem(4 bytes @ 0xE0002000)
T2C18 000:935.171   CPU_ReadMem(4 bytes @ 0xE0001000)
T2C18 000:937.087 - 2.240ms 
T2C18 000:937.102 JLINK_IsHalted()
T2C18 000:937.443 - 0.341ms returns FALSE
T2C18 000:937.458 JLINK_HasError()
T2C18 000:950.047 JLINK_IsHalted()
T2C18 000:951.977 - 1.932ms returns TRUE
T2C18 000:952.015 JLINK_ReadReg(R15 (PC))
T2C18 000:952.031 - 0.015ms returns 0x1FFF0000
T2C18 000:952.044 JLINK_ClrBPEx(BPHandle = 0x00000009)
T2C18 000:952.057 - 0.013ms returns 0x00
T2C18 000:952.071 JLINK_ReadReg(R0)
T2C18 000:952.083 - 0.011ms returns 0x00000000
T2C18 000:953.016 JLINK_HasError()
T2C18 000:953.061 JLINK_WriteReg(R0, 0x00002000)
T2C18 000:953.077 - 0.015ms returns 0
T2C18 000:953.090 JLINK_WriteReg(R1, 0x00000800)
T2C18 000:953.102 - 0.011ms returns 0
T2C18 000:953.115 JLINK_WriteReg(R2, 0x000000FF)
T2C18 000:953.127 - 0.011ms returns 0
T2C18 000:953.139 JLINK_WriteReg(R3, 0x00000000)
T2C18 000:953.151 - 0.011ms returns 0
T2C18 000:953.164 JLINK_WriteReg(R4, 0x00000000)
T2C18 000:953.175 - 0.011ms returns 0
T2C18 000:953.188 JLINK_WriteReg(R5, 0x00000000)
T2C18 000:953.199 - 0.011ms returns 0
T2C18 000:953.212 JLINK_WriteReg(R6, 0x00000000)
T2C18 000:953.223 - 0.011ms returns 0
T2C18 000:953.236 JLINK_WriteReg(R7, 0x00000000)
T2C18 000:953.247 - 0.011ms returns 0
T2C18 000:953.260 JLINK_WriteReg(R8, 0x00000000)
T2C18 000:953.271 - 0.011ms returns 0
T2C18 000:953.284 JLINK_WriteReg(R9, 0x1FFF0344)
T2C18 000:953.296 - 0.011ms returns 0
T2C18 000:953.308 JLINK_WriteReg(R10, 0x00000000)
T2C18 000:953.320 - 0.011ms returns 0
T2C18 000:953.333 JLINK_WriteReg(R11, 0x00000000)
T2C18 000:953.344 - 0.011ms returns 0
T2C18 000:953.357 JLINK_WriteReg(R12, 0x00000000)
T2C18 000:953.368 - 0.011ms returns 0
T2C18 000:953.381 JLINK_WriteReg(R13 (SP), 0x1FFF1000)
T2C18 000:953.393 - 0.012ms returns 0
T2C18 000:953.406 JLINK_WriteReg(R14, 0x1FFF0001)
T2C18 000:953.417 - 0.011ms returns 0
T2C18 000:953.430 JLINK_WriteReg(R15 (PC), 0x1FFF0090)
T2C18 000:953.441 - 0.011ms returns 0
T2C18 000:953.454 JLINK_WriteReg(XPSR, 0x01000000)
T2C18 000:953.466 - 0.011ms returns 0
T2C18 000:953.478 JLINK_WriteReg(MSP, 0x1FFF1000)
T2C18 000:953.490 - 0.011ms returns 0
T2C18 000:953.503 JLINK_WriteReg(PSP, 0x1FFF1000)
T2C18 000:953.514 - 0.011ms returns 0
T2C18 000:953.527 JLINK_WriteReg(CFBP, 0x00000000)
T2C18 000:953.538 - 0.011ms returns 0
T2C18 000:953.553 JLINK_SetBPEx(Addr = 0x1FFF0000, Type = 0xFFFFFFF2)
T2C18 000:953.567 - 0.014ms returns 0x0000000A
T2C18 000:953.579 JLINK_Go()
T2C18 000:953.600   CPU_WriteMem(4 bytes @ 0xE0002000)
T2C18 000:953.906   CPU_ReadMem(4 bytes @ 0xE0001000)
T2C18 000:955.811 - 2.230ms 
T2C18 000:955.827 JLINK_IsHalted()
T2C18 000:957.766 - 1.935ms returns TRUE
T2C18 000:957.837 JLINK_ReadReg(R15 (PC))
T2C18 000:957.866 - 0.028ms returns 0x1FFF0000
T2C18 000:957.890 JLINK_ClrBPEx(BPHandle = 0x0000000A)
T2C18 000:957.911 - 0.021ms returns 0x00
T2C18 000:957.933 JLINK_ReadReg(R0)
T2C18 000:957.953 - 0.019ms returns 0x00000001
T2C18 000:957.975 JLINK_HasError()
T2C18 000:957.999 JLINK_WriteReg(R0, 0x00002000)
T2C18 000:958.019 - 0.020ms returns 0
T2C18 000:958.041 JLINK_WriteReg(R1, 0x00000800)
T2C18 000:958.060 - 0.018ms returns 0
T2C18 000:958.081 JLINK_WriteReg(R2, 0x000000FF)
T2C18 000:958.099 - 0.018ms returns 0
T2C18 000:958.121 JLINK_WriteReg(R3, 0x00000000)
T2C18 000:958.139 - 0.018ms returns 0
T2C18 000:958.161 JLINK_WriteReg(R4, 0x00000000)
T2C18 000:958.180 - 0.018ms returns 0
T2C18 000:958.201 JLINK_WriteReg(R5, 0x00000000)
T2C18 000:958.220 - 0.019ms returns 0
T2C18 000:958.241 JLINK_WriteReg(R6, 0x00000000)
T2C18 000:958.274 - 0.032ms returns 0
T2C18 000:958.308 JLINK_WriteReg(R7, 0x00000000)
T2C18 000:958.342 - 0.033ms returns 0
T2C18 000:958.370 JLINK_WriteReg(R8, 0x00000000)
T2C18 000:958.388 - 0.019ms returns 0
T2C18 000:958.409 JLINK_WriteReg(R9, 0x1FFF0344)
T2C18 000:958.428 - 0.018ms returns 0
T2C18 000:958.452 JLINK_WriteReg(R10, 0x00000000)
T2C18 000:958.470 - 0.018ms returns 0
T2C18 000:958.491 JLINK_WriteReg(R11, 0x00000000)
T2C18 000:958.510 - 0.018ms returns 0
T2C18 000:958.531 JLINK_WriteReg(R12, 0x00000000)
T2C18 000:958.548 - 0.018ms returns 0
T2C18 000:958.569 JLINK_WriteReg(R13 (SP), 0x1FFF1000)
T2C18 000:958.589 - 0.020ms returns 0
T2C18 000:958.610 JLINK_WriteReg(R14, 0x1FFF0001)
T2C18 000:958.628 - 0.018ms returns 0
T2C18 000:958.648 JLINK_WriteReg(R15 (PC), 0x1FFF00C4)
T2C18 000:958.667 - 0.018ms returns 0
T2C18 000:958.688 JLINK_WriteReg(XPSR, 0x01000000)
T2C18 000:958.706 - 0.018ms returns 0
T2C18 000:958.727 JLINK_WriteReg(MSP, 0x1FFF1000)
T2C18 000:958.746 - 0.019ms returns 0
T2C18 000:958.767 JLINK_WriteReg(PSP, 0x1FFF1000)
T2C18 000:958.785 - 0.018ms returns 0
T2C18 000:958.806 JLINK_WriteReg(CFBP, 0x00000000)
T2C18 000:958.823 - 0.017ms returns 0
T2C18 000:958.846 JLINK_SetBPEx(Addr = 0x1FFF0000, Type = 0xFFFFFFF2)
T2C18 000:958.869 - 0.023ms returns 0x0000000B
T2C18 000:958.891 JLINK_Go()
T2C18 000:958.920   CPU_WriteMem(4 bytes @ 0xE0002000)
T2C18 000:959.302   CPU_ReadMem(4 bytes @ 0xE0001000)
T2C18 000:961.346 - 2.453ms 
T2C18 000:961.391 JLINK_IsHalted()
T2C18 000:961.725 - 0.332ms returns FALSE
T2C18 000:961.746 JLINK_HasError()
T2C18 000:971.046 JLINK_IsHalted()
T2C18 000:972.994 - 1.946ms returns TRUE
T2C18 000:973.032 JLINK_ReadReg(R15 (PC))
T2C18 000:973.053 - 0.020ms returns 0x1FFF0000
